! VERSION = 6.00
BEGIN_HEADER
 ICCAP_INPUTS
  vd         V  D GND HPSMU3 0.2 CON        2
  vg         V  G GND MPSMU1 0.004 LIN        1    -1         2.5        51   0.07      
  vs         V  S GND gnd 0.1 CON        0
 ICCAP_OUTPUTS
  id         I  D GND HPSMU3 M
  ig         I  G GROUND MPSMU1 M
END_HEADER

BEGIN_DB
 ICCAP_VAR vd         2              
 ICCAP_VAR vs         0              

 #vg              id              ig             
  -1              0.00013374      -2.821e-008    
  -0.93           0.00016752      -1.081e-008    
  -0.86           0.00021296      -3.7112e-008   
  -0.79           0.00026826      -7.9798e-009   
  -0.72           0.00033944      -5.6302e-009   
  -0.65           0.00043016      -4.7056e-009   
  -0.58           0.00054626      -2.5646e-009   
  -0.51           0.00067962      2.768e-008     
  -0.44           0.00086494      -8.8452e-010   
  -0.37           0.0010857       -1.2628e-010   
  -0.3            0.0013506       1.07386e-009   
  -0.23           0.0017014       8.326e-008     
  -0.16           0.0021304       1.9266e-009    
  -0.09           0.0026458       4.449e-009     
  -0.02           0.0033018       2.8722e-009    
  0.05            0.0041028       1.9468e-009    
  0.12            0.0050866       3.8618e-009    
  0.19            0.006201        4.1852e-009    
  0.26            0.0075734       4.0182e-009    
  0.33            0.0091994       3.2616e-009    
  0.4             0.011058        5.3278e-009    
  0.47            0.0132          7.5496e-009    
  0.54            0.01565         9.456e-009     
  0.61            0.018308        1.014e-008     
  0.68            0.021272        1.5778e-008    
  0.75            0.024404        2.0738e-008    
  0.82            0.027798        4.2334e-008    
  0.89            0.031334        6.4162e-008    
  0.96            0.035004        1.47e-007      
  1.03            0.038816        2.1288e-007    
  1.1             0.042772        2.9932e-007    
  1.17            0.046746        4.4114e-007    
  1.24            0.050748        6.9846e-007    
  1.31            0.05488         9.7932e-007    
  1.38            0.05894         1.3094e-006    
  1.45            0.062988        1.8736e-006    
  1.52            0.067044        2.4974e-006    
  1.59            0.071074        3.392e-006     
  1.66            0.07502         4.7924e-006    
  1.73            0.078974        6.2888e-006    
  1.8             0.082742        8.661e-006     
  1.87            0.08653         1.1298e-005    
  1.94            0.089858        1.5642e-005    
  2.01            0.093062        2.0386e-005    
  2.08            0.096166        2.6794e-005    
  2.15            0.099136        3.335e-005     
  2.22            0.102026        4.1776e-005    
  2.29            0.104788        5.4918e-005    
  2.36            0.10756         7.2814e-005    
  2.43            0.110158        8.9104e-005    
  2.5             0.113614        0.00011238     
END_DB

