! VERSION = 6.00
BEGIN_HEADER
 ICCAP_INPUTS
  freq       F  LIN        1    1e+008     1.1e+011   801  1.37375e+008
  Vd         V  D GROUND HPSMU3 0.1 CON        3.8
  Vg         V  G GROUND MPSMU1 0.005 CON        0.74
 ICCAP_OUTPUTS
  s          S  G D GROUND NWA M
END_HEADER

BEGIN_DB
 ICCAP_VAR Vd         3.8            
 ICCAP_VAR Vg         0.74           

 #freq            R:s(1,1)        I:s(1,1)        R:s(1,2)        I:s(1,2)        R:s(2,1)        I:s(2,1)        R:s(2,2)        I:s(2,2)       
  1e+008          0.998403        -0.0037556      8.8047e-005     0.000336224     -4.43225        0.0261024       0.296847        -0.00130811    
  2.37375e+008    0.998432        -0.00795755     3.41781e-005    0.000760102     -4.42083        0.0385702       0.297311        -0.00462575    
  3.7475e+008     0.999161        -0.0132869      -2.76612e-006   0.00120097      -4.41443        0.055906        0.29639         -0.00504921    
  5.12125e+008    0.999169        -0.0180002      3.89342e-005    0.00162033      -4.40503        0.0711249       0.29606         -0.00705951    
  6.495e+008      0.998757        -0.0225893      6.77254e-005    0.00203658      -4.39707        0.0887203       0.295996        -0.00877616    
  7.86875e+008    0.998495        -0.0272699      5.36543e-005    0.00245293      -4.39255        0.104466        0.296052        -0.0106194     
  9.2425e+008     0.998232        -0.0318146      9.60031e-005    0.00286516      -4.3908         0.117814        0.29594         -0.0122203     
  1.06163e+009    0.998135        -0.0365538      0.000102252     0.00332948      -4.38751        0.132234        0.295558        -0.0139155     
  1.199e+009      0.998161        -0.041214       0.000118323     0.0037505       -4.38708        0.146825        0.295162        -0.0156128     
  1.33638e+009    0.99784         -0.0459149      0.000153933     0.00416886      -4.38847        0.163025        0.294961        -0.0168116     
  1.47375e+009    0.997403        -0.0506111      0.000163953     0.00460072      -4.38817        0.180057        0.294815        -0.0184799     
  1.61113e+009    0.997246        -0.0553161      0.0001915       0.00502558      -4.38504        0.197493        0.294522        -0.0199485     
  1.7485e+009     0.996992        -0.0598786      0.000219778     0.00548294      -4.38386        0.213916        0.294344        -0.0217322     
  1.88588e+009    0.996434        -0.0645787      0.000264459     0.00589472      -4.38069        0.227961        0.29414         -0.023267      
  2.02325e+009    0.996053        -0.0693124      0.000304573     0.00634237      -4.38012        0.242433        0.293687        -0.0247948     
  2.16063e+009    0.995789        -0.0738314      0.000338985     0.00675286      -4.37959        0.258562        0.293494        -0.0262428     
  2.298e+009      0.995161        -0.078746       0.000393343     0.00722455      -4.38019        0.275183        0.293352        -0.0275863     
  2.43538e+009    0.994736        -0.0832936      0.000470334     0.00763964      -4.37835        0.291919        0.292843        -0.0293616     
  2.57275e+009    0.994106        -0.0880168      0.000492497     0.00804679      -4.37646        0.30981         0.292746        -0.030653      
  2.71013e+009    0.99352         -0.0922925      0.000562764     0.00847746      -4.37443        0.32376         0.2923          -0.032009      
  2.8475e+009     0.992915        -0.0968616      0.000595168     0.00888677      -4.36949        0.338776        0.291993        -0.0337231     
  2.98488e+009    0.992439        -0.101723       0.000699042     0.00933016      -4.37102        0.356647        0.292271        -0.0352137     
  3.12225e+009    0.991833        -0.106022       0.000694537     0.00972399      -4.36954        0.369536        0.291778        -0.0364625     
  3.25963e+009    0.99127         -0.1107         0.000772082     0.0101548       -4.36707        0.384191        0.291369        -0.0380795     
  3.397e+009      0.990884        -0.115422       0.000845072     0.0105578       -4.36582        0.403192        0.291405        -0.0396725     
  3.53438e+009    0.990022        -0.120126       0.000908384     0.0110035       -4.36354        0.41955         0.290928        -0.0410403     
  3.67175e+009    0.989444        -0.124699       0.000968861     0.0114147       -4.36082        0.434024        0.290674        -0.0425731     
  3.80913e+009    0.989143        -0.129182       0.00102222      0.0118758       -4.35719        0.449813        0.290768        -0.0439991     
  3.9465e+009     0.988032        -0.133823       0.0011141       0.0122847       -4.35319        0.465131        0.289938        -0.0457542     
  4.08388e+009    0.9874          -0.138551       0.00114528      0.0127          -4.35243        0.479542        0.28988         -0.0472782     
  4.22125e+009    0.986814        -0.143065       0.00123435      0.0131367       -4.34986        0.495634        0.28967         -0.0486686     
  4.35863e+009    0.985941        -0.147859       0.00131624      0.013602        -4.34784        0.511879        0.28913         -0.0499895     
  4.496e+009      0.985036        -0.152511       0.0013988       0.0140006       -4.34478        0.529314        0.288928        -0.0517547     
  4.63338e+009    0.984307        -0.157095       0.00148936      0.0144142       -4.34138        0.545466        0.288524        -0.0533178     
  4.77075e+009    0.983335        -0.161658       0.00163632      0.0148364       -4.34066        0.561247        0.288064        -0.0545749     
  4.90813e+009    0.982207        -0.166287       0.00168123      0.015295        -4.33562        0.576363        0.287736        -0.0562553     
  5.0455e+009     0.981437        -0.170824       0.00179656      0.0157109       -4.33272        0.592302        0.287083        -0.0578586     
  5.18288e+009    0.980572        -0.175235       0.00190311      0.0160861       -4.332          0.607743        0.286965        -0.059151      
  5.32025e+009    0.979589        -0.179828       0.00201755      0.0165471       -4.3292         0.62338         0.286344        -0.060532      
  5.45763e+009    0.978516        -0.184563       0.00213264      0.0169052       -4.32586        0.63957         0.286068        -0.0619784     
  5.595e+009      0.977607        -0.188706       0.00223395      0.0173196       -4.32268        0.655402        0.28561         -0.0632833     
  5.73238e+009    0.976254        -0.193378       0.00234079      0.0177691       -4.31918        0.671668        0.285255        -0.0649376     
  5.86975e+009    0.975419        -0.19787        0.00244125      0.0181565       -4.31605        0.685367        0.285091        -0.0657622     
  6.00713e+009    0.974375        -0.202409       0.00256052      0.0185891       -4.31411        0.702524        0.284362        -0.06766       
  6.1445e+009     0.973313        -0.206975       0.00265632      0.0190052       -4.30995        0.716912        0.28391         -0.0692536     
  6.28188e+009    0.972251        -0.211239       0.00280649      0.0194239       -4.30642        0.732809        0.283919        -0.0701511     
  6.41925e+009    0.970733        -0.215836       0.0029343       0.0198329       -4.30394        0.74896         0.283045        -0.0717276     
  6.55663e+009    0.96977         -0.220713       0.00303624      0.0202493       -4.29979        0.763457        0.28254         -0.0733221     
  6.694e+009      0.968748        -0.224724       0.00315281      0.0206487       -4.29412        0.778698        0.282371        -0.0744516     
  6.83138e+009    0.967072        -0.229395       0.003291        0.021056        -4.29261        0.796897        0.281705        -0.0762392     
  6.96875e+009    0.966042        -0.234198       0.00341903      0.0214647       -4.28871        0.810747        0.281075        -0.0775618     
  7.10613e+009    0.964962        -0.238453       0.00353927      0.0219019       -4.28475        0.82654         0.280555        -0.0790153     
  7.2435e+009     0.963192        -0.243074       0.00367114      0.0222576       -4.28194        0.843777        0.280402        -0.0807535     
  7.38088e+009    0.961954        -0.247644       0.00380043      0.0227042       -4.27789        0.859588        0.279872        -0.0816534     
  7.51825e+009    0.960764        -0.251969       0.00395405      0.0231274       -4.27286        0.875534        0.279134        -0.0830992     
  7.65563e+009    0.959193        -0.256266       0.0041038       0.023519        -4.26786        0.892572        0.278799        -0.0845286     
  7.793e+009      0.957801        -0.260882       0.00427086      0.0238913       -4.26479        0.907647        0.278315        -0.0861194     
  7.93038e+009    0.956576        -0.265246       0.0043831       0.024348        -4.25993        0.923532        0.277906        -0.0875855     
  8.06775e+009    0.955189        -0.269598       0.00452472      0.0246989       -4.25533        0.939612        0.277302        -0.0887763     
  8.20513e+009    0.953378        -0.27407        0.00469629      0.0251099       -4.24992        0.95375         0.276738        -0.0903669     
  8.3425e+009     0.952188        -0.278558       0.0048649       0.0254996       -4.24402        0.969629        0.27648         -0.0919346     
  8.47988e+009    0.950609        -0.282709       0.00504819      0.0259195       -4.23975        0.985858        0.27589         -0.0928322     
  8.61725e+009    0.948695        -0.28721        0.00518409      0.0263306       -4.2356         1.00136         0.275293        -0.094378      
  8.75463e+009    0.947545        -0.291621       0.00536639      0.0267462       -4.2278         1.01467         0.274939        -0.0956906     
  8.892e+009      0.945933        -0.295635       0.00551896      0.0270939       -4.22416        1.03121         0.27433         -0.0969524     
  9.02938e+009    0.944005        -0.300313       0.00570251      0.0275081       -4.21997        1.0465          0.273844        -0.0986564     
  9.16675e+009    0.942684        -0.304714       0.00585855      0.0279119       -4.2143         1.06027         0.273243        -0.0996501     
  9.30413e+009    0.940933        -0.308869       0.00606806      0.0283088       -4.20954        1.0753          0.272386        -0.10122       
  9.4415e+009     0.939124        -0.31319        0.00621076      0.0286773       -4.20352        1.09114         0.272115        -0.102862      
  9.57888e+009    0.937417        -0.317569       0.00639875      0.0290505       -4.19812        1.10797         0.271305        -0.104113      
  9.71625e+009    0.935689        -0.321694       0.00657601      0.0294844       -4.19344        1.12033         0.270806        -0.104928      
  9.85363e+009    0.933756        -0.325822       0.00678775      0.0298608       -4.18529        1.13638         0.270143        -0.106893      
  9.991e+009      0.931983        -0.330442       0.00699156      0.0301916       -4.18173        1.15349         0.269575        -0.108277      
  1.01284e+010    0.930472        -0.334361       0.00717719      0.0306311       -4.1763         1.16583         0.269149        -0.109172      
  1.02658e+010    0.928283        -0.338676       0.00738581      0.0310371       -4.16935        1.18308         0.268112        -0.111048      
  1.04031e+010    0.926561        -0.34352        0.00756899      0.0314026       -4.1668         1.19725         0.267426        -0.112233      
  1.05405e+010    0.924924        -0.347263       0.00777592      0.0317768       -4.15893        1.21014         0.266674        -0.113689      
  1.06779e+010    0.922737        -0.351292       0.00797469      0.0321542       -4.152          1.22584         0.266216        -0.115119      
  1.08153e+010    0.920678        -0.356056       0.00816082      0.0325063       -4.14722        1.24191         0.265397        -0.116358      
  1.09526e+010    0.91916         -0.359813       0.00839274      0.0328905       -4.14098        1.25337         0.264467        -0.117779      
  1.109e+010      0.917109        -0.363924       0.0086318       0.0332874       -4.13289        1.27039         0.264072        -0.119273      
  1.12274e+010    0.9149          -0.368813       0.00883261      0.0336221       -4.12872        1.28568         0.263715        -0.120454      
  1.13648e+010    0.912929        -0.373021       0.00903955      0.0340219       -4.12179        1.29803         0.262362        -0.12142       
  1.15021e+010    0.911033        -0.376824       0.00925887      0.0343886       -4.11615        1.31336         0.261593        -0.123382      
  1.16395e+010    0.909018        -0.380752       0.00950116      0.0347762       -4.10828        1.32582         0.261507        -0.124134      
  1.17769e+010    0.906421        -0.385378       0.00973066      0.0350852       -4.1043         1.34216         0.260564        -0.125478      
  1.19143e+010    0.904838        -0.389326       0.00994966      0.0354871       -4.09759        1.35453         0.259578        -0.126677      
  1.20516e+010    0.902758        -0.392711       0.0101813       0.0358222       -4.08903        1.37023         0.258779        -0.128701      
  1.2189e+010     0.90039         -0.397457       0.010422        0.0361134       -4.08608        1.385           0.258469        -0.129784      
  1.23264e+010    0.898234        -0.401558       0.0106693       0.0365056       -4.07699        1.39703         0.257418        -0.130562      
  1.24638e+010    0.896111        -0.40509        0.0108446       0.0368616       -4.07143        1.41166         0.256308        -0.132383      
  1.26011e+010    0.893616        -0.409338       0.0110833       0.0371926       -4.06495        1.42688         0.255962        -0.133653      
  1.27385e+010    0.891356        -0.413513       0.0113309       0.0375462       -4.05558        1.4416          0.255202        -0.134425      
  1.28759e+010    0.889462        -0.417484       0.0115712       0.0379262       -4.05197        1.45607         0.253978        -0.136177      
  1.30133e+010    0.886853        -0.42164        0.0118228       0.038219        -4.04218        1.46805         0.253559        -0.137163      
  1.31506e+010    0.884387        -0.426143       0.0120745       0.0385486       -4.03664        1.48393         0.252681        -0.138277      
  1.3288e+010     0.882689        -0.429734       0.0123286       0.038947        -4.03179        1.49761         0.251847        -0.139947      
  1.34254e+010    0.879789        -0.433938       0.0125601       0.0392508       -4.0226         1.51286         0.251146        -0.140317      
  1.35628e+010    0.876734        -0.4383         0.0128002       0.0395957       -4.01386        1.52941         0.250067        -0.141936      
  1.37001e+010    0.875044        -0.441371       0.0130635       0.0399448       -4.00434        1.54099         0.249209        -0.143614      
  1.38375e+010    0.872429        -0.44479        0.0133529       0.0402158       -3.99731        1.55356         0.248619        -0.144623      
  1.39749e+010    0.869463        -0.449519       0.0135573       0.0406031       -3.99079        1.57002         0.247747        -0.14546       
  1.41123e+010    0.867682        -0.45299        0.0138172       0.0409292       -3.98146        1.58207         0.246575        -0.147093      
  1.42496e+010    0.865266        -0.456424       0.0140665       0.0412319       -3.97468        1.59617         0.245782        -0.148432      
  1.4387e+010     0.862353        -0.460951       0.0143153       0.0415526       -3.96741        1.61197         0.245275        -0.149549      
  1.45244e+010    0.859964        -0.464397       0.0145578       0.0419426       -3.95773        1.62463         0.243829        -0.150333      
  1.46618e+010    0.857539        -0.468113       0.014858        0.0422973       -3.95098        1.6379          0.243091        -0.151954      
  1.47991e+010    0.854802        -0.471851       0.0151352       0.0425811       -3.9421         1.65177         0.242473        -0.153295      
  1.49365e+010    0.852197        -0.476021       0.0153912       0.0429169       -3.93402        1.66644         0.241372        -0.154149      
  1.50739e+010    0.849805        -0.479523       0.0156439       0.0432464       -3.92839        1.67752         0.24066         -0.155514      
  1.52113e+010    0.846726        -0.483318       0.0159956       0.0435541       -3.91797        1.69275         0.239527        -0.15699       
  1.53486e+010    0.844271        -0.487254       0.0162347       0.0438531       -3.90965        1.70783         0.23808         -0.15801       
  1.5486e+010     0.841901        -0.490628       0.0165752       0.044209        -3.90291        1.71866         0.237859        -0.159258      
  1.56234e+010    0.838633        -0.494285       0.0168362       0.044412        -3.89292        1.73308         0.236529        -0.159965      
  1.57608e+010    0.836376        -0.498416       0.0171106       0.04474         -3.88761        1.74594         0.235189        -0.161314      
  1.58981e+010    0.833697        -0.50164        0.0174072       0.0450584       -3.87577        1.75801         0.234622        -0.162307      
  1.60355e+010    0.830698        -0.505982       0.017654        0.0453123       -3.86872        1.77422         0.23394         -0.163238      
  1.61729e+010    0.827703        -0.509651       0.0180193       0.0456373       -3.86049        1.78619         0.232702        -0.164697      
  1.63103e+010    0.824778        -0.513133       0.0182586       0.0458747       -3.84912        1.80077         0.231367        -0.165667      
  1.64476e+010    0.822052        -0.516863       0.0185757       0.046228        -3.84172        1.81438         0.23094         -0.166675      
  1.6585e+010     0.819013        -0.520144       0.0188463       0.0464511       -3.83054        1.82405         0.229969        -0.16782       
  1.67224e+010    0.81571         -0.524046       0.0191471       0.046685        -3.8221         1.84194         0.228456        -0.168416      
  1.68598e+010    0.81292         -0.527258       0.0193652       0.0469875       -3.81338        1.85373         0.227646        -0.169784      
  1.69971e+010    0.809975        -0.530417       0.0197044       0.0472509       -3.8026         1.86433         0.22699         -0.171251      
  1.71345e+010    0.806891        -0.534205       0.0200088       0.0474945       -3.79453        1.88077         0.225855        -0.171739      
  1.72719e+010    0.803732        -0.537351       0.0202543       0.0478372       -3.78406        1.88945         0.224911        -0.172653      
  1.74093e+010    0.800954        -0.540721       0.0204945       0.0480716       -3.77365        1.9044          0.223585        -0.174061      
  1.75466e+010    0.798455        -0.543812       0.0208336       0.0483962       -3.76721        1.91639         0.223225        -0.175384      
  1.7684e+010     0.79504         -0.547152       0.0211061       0.0486457       -3.75596        1.9254          0.222191        -0.175711      
  1.78214e+010    0.791922        -0.550772       0.0214348       0.0488777       -3.74547        1.94185         0.220186        -0.176723      
  1.79588e+010    0.789495        -0.553877       0.0217348       0.0492468       -3.73714        1.95371         0.220018        -0.17848       
  1.80961e+010    0.785917        -0.556986       0.0219934       0.0494654       -3.7271         1.96436         0.219409        -0.179248      
