! VERSION = 6.00
BEGIN_HEADER
 ICCAP_INPUTS
  freq       F  CON        10000000000
  Vd         V  D2 GROUND HPSMU3 0.5 CON        3.5
  Vg         V  G GROUND MPSMU1 0.005 LIN        1    -1         2          51   0.06      
 ICCAP_OUTPUTS
  s          S  G D GROUND NWA M
  Id         I  D GROUND HPSMU3 M
END_HEADER

BEGIN_DB
 ICCAP_VAR freq       1e+010         
 ICCAP_VAR Vd         3.5            

 #Vg              R:s(1,1)        I:s(1,1)        R:s(1,2)        I:s(1,2)        R:s(2,1)        I:s(2,1)        R:s(2,2)        I:s(2,2)        Id             
  -1              0.979804        -0.182815       0.00590174      0.0462852       -0.448788       0.119845        0.695249        -0.114211       0.0029938      
  -0.94           0.97958         -0.184507       0.0058278       0.0457867       -0.488951       0.126223        0.680866        -0.112897       0.003248       
  -0.88           0.979275        -0.186395       0.00577664      0.0452144       -0.535423       0.134385        0.664491        -0.111394       0.0035764      
  -0.82           0.978767        -0.188688       0.00575711      0.0446269       -0.588263       0.143176        0.646925        -0.109789       0.0039598      
  -0.76           0.97836         -0.19103        0.00570413      0.0439897       -0.646627       0.153391        0.628963        -0.108268       0.004387       
  -0.7            0.977805        -0.19375        0.00563279      0.0433584       -0.712211       0.165168        0.610344        -0.106703       0.0048738      
  -0.64           0.977261        -0.196726       0.00563682      0.0427198       -0.785967       0.178778        0.591173        -0.10556        0.0054198      
  -0.58           0.976562        -0.200125       0.00558404      0.0420097       -0.868909       0.194555        0.571644        -0.103901       0.0060476      
  -0.52           0.975885        -0.203774       0.00553559      0.0413281       -0.962042       0.212639        0.551753        -0.102662       0.0067382      
  -0.46           0.974966        -0.207867       0.00554509      0.040586        -1.06666        0.23361         0.531237        -0.101785       0.0075142      
  -0.4            0.973958        -0.212322       0.00545448      0.039927        -1.18505        0.258103        0.510268        -0.100715       0.0083916      
  -0.34           0.972937        -0.21742        0.00548754      0.0391966       -1.31728        0.286356        0.488821        -0.0998288      0.0093686      
  -0.28           0.971578        -0.222818       0.00544672      0.0384404       -1.46453        0.318658        0.466773        -0.0990649      0.0104814      
  -0.22           0.970262        -0.228823       0.00539782      0.0376732       -1.62313        0.354962        0.444761        -0.0984319      0.011706       
  -0.16           0.96867         -0.235134       0.00547014      0.0369555       -1.79414        0.395264        0.423191        -0.0980127      0.013104       
  -0.1            0.966929        -0.241842       0.00542625      0.0362046       -1.97613        0.439874        0.402207        -0.0978313      0.01464        
  -0.04           0.965107        -0.24885        0.00544272      0.0355363       -2.1662         0.4879          0.382234        -0.0978789      0.01633        
  0.02            0.963211        -0.256201       0.00549345      0.0348762       -2.36469        0.54004         0.363286        -0.0981647      0.018222       
  0.08            0.961115        -0.263551       0.00545251      0.0342885       -2.56799        0.59515         0.345916        -0.0987483      0.020272       
  0.14            0.958859        -0.271193       0.0055512       0.0337646       -2.77324        0.652985        0.330213        -0.0995843      0.022496       
  0.2             0.956626        -0.278697       0.00554893      0.0332703       -2.97557        0.711487        0.316282        -0.10062        0.024904       
  0.26            0.954273        -0.286092       0.00561524      0.0328398       -3.17556        0.771217        0.304299        -0.101972       0.027502       
  0.32            0.952073        -0.293305       0.00567776      0.0324655       -3.36817        0.830454        0.294139        -0.103487       0.030272       
  0.38            0.949844        -0.300363       0.00570862      0.0321424       -3.55135        0.888543        0.285823        -0.105175       0.0332         
  0.44            0.9475          -0.307231       0.00581666      0.0319269       -3.72046        0.944101        0.279237        -0.106953       0.03633        
  0.5             0.94537         -0.313383       0.00588326      0.0317761       -3.87153        0.994718        0.274389        -0.108849       0.039672       
  0.56            0.943344        -0.319025       0.00596921      0.0316717       -3.99939        1.03946         0.271094        -0.110691       0.043182       
  0.62            0.941609        -0.324049       0.00604917      0.0316318       -4.10041        1.07756         0.269195        -0.112339       0.046826       
  0.68            0.94            -0.328335       0.00614429      0.0316586       -4.17428        1.10582         0.268332        -0.113941       0.050548       
  0.74            0.938583        -0.331789       0.00621083      0.0316899       -4.21717        1.12436         0.268331        -0.11525        0.054358       
  0.8             0.937599        -0.334411       0.00633276      0.0318401       -4.2283         1.13268         0.268801        -0.116181       0.058168       
  0.86            0.936839        -0.336387       0.00641882      0.0320606       -4.21217        1.13148         0.269976        -0.116915       0.06198        
  0.92            0.9363          -0.33757        0.00644049      0.0322307       -4.17222        1.12223         0.271045        -0.117334       0.065718       
  0.98            0.935971        -0.338194       0.00656627      0.0325138       -4.11244        1.10545         0.272153        -0.117391       0.06946        
  1.04            0.9357          -0.338258       0.0065938       0.0328808       -4.03146        1.08408         0.273204        -0.117311       0.0731         
  1.1             0.935603        -0.337825       0.00668426      0.0331707       -3.93784        1.05709         0.274172        -0.116897       0.07671        
  1.16            0.935715        -0.336934       0.00677312      0.0335099       -3.83338        1.02471         0.274545        -0.116364       0.080224       
  1.22            0.935806        -0.335667       0.0068555       0.0339258       -3.72147        0.991277        0.274867        -0.115694       0.083704       
  1.28            0.935803        -0.334261       0.00699405      0.0344008       -3.60426        0.956382        0.275142        -0.114958       0.087076       
  1.34            0.935926        -0.332668       0.00712078      0.0348603       -3.48228        0.920577        0.274439        -0.114032       0.090416       
  1.4             0.935908        -0.330801       0.00720606      0.0353667       -3.36212        0.884935        0.273928        -0.113155       0.093674       
  1.46            0.935758        -0.328786       0.00739141      0.0359238       -3.23572        0.848012        0.271896        -0.111914       0.096862       
  1.52            0.93555         -0.326664       0.00756021      0.0364444       -3.11189        0.811992        0.269817        -0.110676       0.099982       
  1.58            0.935084        -0.32457        0.00768849      0.0370649       -2.99066        0.777514        0.2674          -0.109502       0.10302        
  1.64            0.934544        -0.322435       0.00787783      0.0376628       -2.87184        0.744081        0.264328        -0.108112       0.106042       
  1.7             0.933747        -0.320073       0.00811419      0.0383091       -2.75897        0.712181        0.261426        -0.106978       0.108886       
  1.76            0.932787        -0.317813       0.00833711      0.0389634       -2.64758        0.681616        0.257816        -0.105595       0.111716       
  1.82            0.931761        -0.315485       0.00859324      0.039584        -2.54255        0.652748        0.254574        -0.104318       0.11438        
  1.88            0.930575        -0.313159       0.00885691      0.0402531       -2.44264        0.625884        0.250358        -0.102967       0.117          
  1.94            0.92898         -0.31083        0.0091874       0.0408917       -2.34608        0.60009         0.246943        -0.101797       0.11948        
  2               0.927147        -0.308435       0.00951187      0.0415263       -2.25822        0.577165        0.243132        -0.100699       0.12184        
END_DB

