! VERSION = 6.00
BEGIN_HEADER
 ICCAP_INPUTS
  freq       F  CON        10000000000
  Vd         V  D2 GROUND HPSMU3 0.5 LIN        2    0          6          25   0.25      
  Vg         V  G GROUND MPSMU1 0.005 LIN        1    -1         2.5        51   0.07      
 ICCAP_OUTPUTS
  s          S  G D GROUND NWA M
  Id         I  D GROUND HPSMU3 M
END_HEADER

BEGIN_DB
 ICCAP_VAR freq       1e+010         
 ICCAP_VAR Vd         0              

 #Vg              R:s(1,1)        I:s(1,1)        R:s(1,2)        I:s(1,2)        R:s(2,1)        I:s(2,1)        R:s(2,2)        I:s(2,2)        Id             
  -1              0.97831         -0.178938       0.0109473       0.0722396       0.0105697       0.0699127       0.980066        -0.170554       1.996e-006     
  -0.93           0.978075        -0.179734       0.0110445       0.0726921       0.010647        0.0703639       0.980053        -0.171207       1.7732e-006    
  -0.86           0.977912        -0.180727       0.0112029       0.073123        0.0107435       0.0707765       0.979904        -0.171854       1.5728e-006    
  -0.79           0.977723        -0.181739       0.0113019       0.0735821       0.0108842       0.0712291       0.979775        -0.172439       1.4218e-006    
  -0.72           0.977516        -0.182741       0.0113991       0.0740828       0.0110216       0.0717296       0.979518        -0.173113       1.2422e-006    
  -0.65           0.977209        -0.184033       0.011558        0.0745914       0.0111549       0.0722379       0.979358        -0.173839       1.1062e-006    
  -0.58           0.976892        -0.185276       0.0116999       0.0751518       0.0112722       0.0727708       0.979211        -0.174565       9.5672e-007    
  -0.51           0.97659         -0.186477       0.011854        0.0757357       0.0114207       0.0733116       0.979017        -0.175409       8.2454e-007    
  -0.44           0.976338        -0.187969       0.0120554       0.0763263       0.0115626       0.0738908       0.978757        -0.176187       6.486e-007     
  -0.37           0.975869        -0.189443       0.0122415       0.0769669       0.0117832       0.0745137       0.978495        -0.177155       5.3458e-007    
  -0.3            0.975641        -0.191027       0.012448        0.0777164       0.0119751       0.075151        0.978107        -0.178076       3.895e-007     
  -0.23           0.975197        -0.192808       0.0126987       0.0784218       0.012181        0.0759053       0.977453        -0.179081       2.5192e-007    
  -0.16           0.974729        -0.194746       0.012895        0.0791934       0.0124371       0.0766852       0.976733        -0.180178       8.481e-008     
  -0.09           0.974059        -0.196873       0.0132086       0.0800117       0.0126809       0.0774854       0.975027        -0.181173       -1.568e-007    
  -0.02           0.973687        -0.199177       0.013478        0.080883        0.012955        0.0782899       0.971297        -0.181886       -6.2746e-007   
  0.05            0.972886        -0.201775       0.0137764       0.0815271       0.0132951       0.0789748       0.962048        -0.181676       -1.7304e-006   
  0.12            0.972167        -0.204792       0.0139759       0.0817584       0.0136476       0.0792606       0.938676        -0.178871       -4.433e-006    
  0.19            0.971192        -0.208211       0.0139708       0.0808105       0.0138916       0.0783804       0.884359        -0.170159       -1.0121e-005   
  0.26            0.970244        -0.212367       0.0134021       0.0772494       0.01394         0.0750467       0.768037        -0.149644       -1.9882e-005   
  0.33            0.969168        -0.217269       0.011968        0.069883        0.0134132       0.068057        0.566141        -0.113685       -3.1464e-005   
  0.4             0.968062        -0.223138       0.00981003      0.0588498       0.0120593       0.0573524       0.288325        -0.0660484      -3.8042e-005   
  0.47            0.966703        -0.229666       0.00742405      0.0465169       0.0102375       0.045536        -0.00679545     -0.0184638      -3.5882e-005   
  0.54            0.964837        -0.236511       0.00548196      0.0359426       0.00827095      0.0352537       -0.253222       0.0177636       -2.925e-005    
  0.61            0.962853        -0.243397       0.00414901      0.0281218       0.00671975      0.0276605       -0.430007       0.041157        -2.3478e-005   
  0.68            0.960418        -0.249891       0.00331145      0.0227328       0.00546828      0.0224052       -0.549668       0.0558112       -2.0448e-005   
  0.75            0.957355        -0.25577        0.00282511      0.0191875       0.0046377       0.0188651       -0.629248       0.0646777       -2.001e-005    
  0.82            0.953674        -0.260807       0.00255172      0.0167483       0.00409653      0.0164657       -0.682916       0.0701701       -2.1108e-005   
  0.89            0.949304        -0.265039       0.00244622      0.0150566       0.00379166      0.0147616       -0.720117       0.0735797       -2.334e-005    
  0.96            0.944194        -0.268616       0.00246556      0.0137731       0.00364747      0.013583        -0.746918       0.0757404       -2.652e-005    
  1.03            0.938268        -0.271327       0.00253765      0.0128918       0.00360731      0.0126704       -0.766584       0.0772154       -3.0912e-005   
  1.1             0.930846        -0.273167       0.00271186      0.0121626       0.00368146      0.0119373       -0.781649       0.0782469       -3.6574e-005   
  1.17            0.9221          -0.2742         0.00294062      0.0116122       0.00381603      0.0114086       -0.793055       0.079039        -4.4392e-005   
  1.24            0.912365        -0.274473       0.00322029      0.0111586       0.00405872      0.0109121       -0.802219       0.0796002       -5.3774e-005   
  1.31            0.901399        -0.274121       0.00355257      0.0107889       0.00436032      0.0104977       -0.809411       0.0800845       -6.553e-005    
  1.38            0.88846         -0.272754       0.00399431      0.0104488       0.00476825      0.0102136       -0.81508        0.0804616       -8.0928e-005   
  1.45            0.874253        -0.270735       0.00454357      0.0101853       0.00527163      0.00989573      -0.819627       0.08066         -0.000100014   
  1.52            0.859398        -0.268141       0.00509338      0.00991515      0.00582215      0.00959906      -0.823255       0.0809578       -0.00012402    
  1.59            0.844469        -0.265285       0.00558339      0.00969089      0.00629167      0.00938194      -0.826132       0.0811801       -0.00015024    
  1.66            0.830385        -0.262592       0.00617703      0.00953687      0.00677795      0.0091754       -0.828463       0.0812714       -0.00017704    
  1.73            0.813851        -0.258793       0.00678387      0.00935956      0.00736331      0.00896273      -0.830391       0.0814324       -0.00021414    
  1.8             0.798076        -0.255101       0.00725857      0.00918001      0.00790247      0.00875703      -0.832105       0.0815952       -0.00025218    
  1.87            0.781311        -0.251053       0.00787198      0.00903677      0.00849774      0.00855179      -0.833365       0.0816841       -0.00029928    
  1.94            0.763322        -0.246306       0.00855614      0.00884927      0.00917987      0.00833066      -0.83451        0.0817753       -0.0003477     
  2.01            0.743895        -0.241189       0.00919086      0.0087093       0.0099269       0.00809957      -0.835502       0.0817451       -0.00041184    
  2.08            0.72276         -0.235485       0.0100684       0.00855028      0.0106899       0.00792484      -0.836212       0.0818396       -0.00046872    
  2.15            0.698162        -0.228602       0.0109999       0.00832373      0.0116538       0.00766927      -0.836693       0.0819028       -0.00054194    
  2.22            0.669706        -0.220351       0.0120737       0.00807843      0.012756        0.00735562      -0.837161       0.0819222       -0.00062232    
  2.29            0.63427         -0.21012        0.0134952       0.00779578      0.0141678       0.00702317      -0.837523       0.0819705       -0.00072054    
  2.36            0.589849        -0.19708        0.0152001       0.00745794      0.0159407       0.00652786      -0.837826       0.081961        -0.00083696    
  2.43            0.530404        -0.179918       0.0174227       0.00699626      0.0182141       0.00600244      -0.83802        0.081992        -0.00097752    
  2.5             0.464395        -0.160754       0.0199634       0.00641682      0.0208545       0.0053535       -0.83828        0.0819929       -0.0011582     
END_DB

BEGIN_DB
 ICCAP_VAR freq       1e+010         
 ICCAP_VAR Vd         0.25           

 #Vg              R:s(1,1)        I:s(1,1)        R:s(1,2)        I:s(1,2)        R:s(2,1)        I:s(2,1)        R:s(2,2)        I:s(2,2)        Id             
  -1              0.978376        -0.178823       0.010677        0.0705688       0.00907265      0.0685978       0.975326        -0.168693       1.6618e-005    
  -0.93           0.978357        -0.179039       0.0106825       0.0708486       0.00959686      0.0687739       0.978353        -0.16925        6.4546e-006    
  -0.86           0.97824         -0.17979        0.0107534       0.0712366       0.00986086      0.0691052       0.978883        -0.169748       3.9908e-006    
  -0.79           0.978062        -0.180618       0.0108367       0.0716161       0.00991367      0.069417        0.978955        -0.170236       3.387e-006     
  -0.72           0.977882        -0.181552       0.0109322       0.0719555       0.00994095      0.0698295       0.978862        -0.170748       3.2012e-006    
  -0.65           0.977719        -0.18263        0.0110402       0.0723961       0.00999875      0.0702189       0.978635        -0.171338       3.0644e-006    
  -0.58           0.977374        -0.183714       0.011141        0.072792        0.0100172       0.0705979       0.978454        -0.171898       3.1708e-006    
  -0.51           0.977238        -0.185025       0.0113302       0.0732299       0.00998506      0.0710775       0.978082        -0.172517       3.1808e-006    
  -0.44           0.976807        -0.186343       0.0114805       0.0736542       0.0098856       0.0715064       0.977523        -0.173185       3.6518e-006    
  -0.37           0.976572        -0.187624       0.0115501       0.0741482       0.00979304      0.0719886       0.977182        -0.173807       3.9492e-006    
  -0.3            0.976189        -0.189115       0.0117376       0.0746036       0.00930951      0.0725054       0.976218        -0.174434       4.7992e-006    
  -0.23           0.975843        -0.190827       0.0118842       0.0750487       0.00831785      0.0732207       0.974853        -0.175001       6.2748e-006    
  -0.16           0.975441        -0.192627       0.0120471       0.0754495       0.00604687      0.0740499       0.972313        -0.175604       8.726e-006     
  -0.09           0.974921        -0.194862       0.012228        0.0758324       0.000664836     0.0753361       0.967436        -0.175814       1.3776e-005    
  -0.02           0.974353        -0.197553       0.0124042       0.0760322       -0.0116508      0.0777186       0.957975        -0.175584       2.472e-005     
  0.05            0.973622        -0.200965       0.0125011       0.0758646       -0.0395899      0.0825305       0.939042        -0.174197       5.0042e-005    
  0.12            0.972518        -0.206139       0.0125298       0.0749384       -0.0984148      0.0924429       0.902445        -0.170696       0.00010556     
  0.19            0.970874        -0.213745       0.0123794       0.0729077       -0.21161        0.112227        0.838933        -0.163887       0.0002247      
  0.26            0.968381        -0.224836       0.0120767       0.069377        -0.401707       0.148044        0.738552        -0.15286        0.00046734     
  0.33            0.964819        -0.239736       0.0114926       0.0643533       -0.673162       0.204363        0.602726        -0.137258       0.00092274     
  0.4             0.960085        -0.257265       0.0107079       0.0584633       -0.992279       0.278814        0.446537        -0.118364       0.0017146      
  0.47            0.954693        -0.275033       0.0099149       0.0525206       -1.30402        0.360322        0.288119        -0.0975646      0.0029326      
  0.54            0.949373        -0.290977       0.00905925      0.0471619       -1.54941        0.432304        0.142744        -0.0767729      0.0046448      
  0.61            0.944652        -0.303431       0.00825865      0.0423998       -1.69717        0.481615        0.0132488       -0.0565797      0.006841       
  0.68            0.940823        -0.312076       0.00749768      0.0382336       -1.73913        0.501604        -0.102326       -0.0371344      0.0094858      
  0.75            0.937913        -0.316852       0.00675252      0.0345138       -1.68426        0.491771        -0.208126       -0.0181659      0.01246        
  0.82            0.935847        -0.317903       0.00600387      0.0309753       -1.54781        0.454838        -0.307075       0.000266365     0.015656       
  0.89            0.934014        -0.316221       0.00527232      0.0276485       -1.35653        0.398817        -0.399342       0.0174266       0.018938       
  0.96            0.932179        -0.31239        0.00467221      0.0245553       -1.13456        0.331993        -0.484391       0.0332133       0.02218        
  1.03            0.930164        -0.30747        0.00411269      0.0217174       -0.911725       0.264544        -0.55865        0.0462667       0.025198       
  1.1             0.927232        -0.30228        0.00372995      0.0193525       -0.710971       0.204269        -0.61941        0.0562605       0.027966       
  1.17            0.92258         -0.297389       0.00352767      0.0173516       -0.54534        0.155858        -0.667046       0.063373        0.030408       
  1.24            0.916388        -0.292985       0.00349253      0.0158733       -0.416688       0.119763        -0.703139       0.0682792       0.032538       
  1.31            0.90853         -0.289107       0.00362874      0.0146966       -0.318946       0.0929231       -0.729836       0.0715561       0.034308       
  1.38            0.899124        -0.285464       0.00389562      0.0137907       -0.245571       0.0734105       -0.749928       0.073762        0.035816       
  1.45            0.889071        -0.282144       0.00428698      0.0130918       -0.189635       0.0589571       -0.765312       0.0754021       0.037074       
  1.52            0.877867        -0.278866       0.0047319       0.0125253       -0.146641       0.0480086       -0.777058       0.0765102       0.038124       
  1.59            0.865459        -0.275361       0.0053104       0.0120488       -0.113231       0.0396221       -0.786177       0.0772627       0.038984       
  1.66            0.851346        -0.271497       0.00601334      0.0115972       -0.087356       0.0331437       -0.793412       0.0779388       0.039692       
  1.73            0.836628        -0.26753        0.00679243      0.0112055       -0.0672478      0.0281425       -0.798993       0.0785012       0.040262       
  1.8             0.821431        -0.263362       0.00759391      0.0109353       -0.0516134      0.0242549       -0.803542       0.0788157       0.040726       
  1.87            0.80574         -0.259103       0.00825798      0.010607        -0.0392254      0.0211496       -0.807035       0.0791796       0.041102       
  1.94            0.789246        -0.254516       0.00903037      0.010324        -0.0293622      0.0187049       -0.810169       0.0794241       0.041418       
  2.01            0.772332        -0.249932       0.00979467      0.0100621       -0.0212175      0.016608        -0.812666       0.0796553       0.04166        
  2.08            0.753087        -0.244563       0.010811        0.0097938       -0.0145345      0.0149673       -0.814773       0.0798737       0.041868       
  2.15            0.734305        -0.239302       0.0116535       0.00956365      -0.00904812     0.0136451       -0.816356       0.0800008       0.042012       
  2.22            0.710839        -0.23243        0.0127768       0.00924023      -0.00422637     0.0123887       -0.81777        0.080111        0.042118       
  2.29            0.686192        -0.225517       0.0139089       0.0089579       -9.04248e-005   0.0113531       -0.818818       0.080181        0.04217        
  2.36            0.652817        -0.215696       0.0153811       0.00865845      0.00402773      0.0103397       -0.81988        0.0802581       0.042192       
  2.43            0.609066        -0.20265        0.01733         0.00817867      0.00830177      0.00924665      -0.820696       0.0803435       0.042162       
  2.5             0.558369        -0.187781       0.0195012       0.00765022      0.0124028       0.00825656      -0.821347       0.0803902       0.042086       
END_DB

BEGIN_DB
 ICCAP_VAR freq       1e+010         
 ICCAP_VAR Vd         0.5            

 #Vg              R:s(1,1)        I:s(1,1)        R:s(1,2)        I:s(1,2)        R:s(2,1)        I:s(2,1)        R:s(2,2)        I:s(2,2)        Id             
  -1              0.978668        -0.177969       0.0102766       0.068714        0.00670531      0.0671631       0.97169         -0.165933       4.1582e-005    
  -0.93           0.978694        -0.178126       0.0103539       0.069064        0.00799183      0.0673289       0.976845        -0.166972       1.4664e-005    
  -0.86           0.978534        -0.178798       0.0104079       0.0693963       0.00851772      0.067502        0.977879        -0.167399       8.5754e-006    
  -0.79           0.978379        -0.179632       0.0104082       0.0696876       0.00840933      0.0677941       0.97783         -0.167868       7.5448e-006    
  -0.72           0.978192        -0.180628       0.010548        0.0700044       0.00850664      0.0680908       0.977772        -0.1683         7.0742e-006    
  -0.65           0.97804         -0.181526       0.0106139       0.0703335       0.00842197      0.068451        0.977456        -0.16875        6.6772e-006    
  -0.58           0.977751        -0.182641       0.0107346       0.0705944       0.00816833      0.0688267       0.976877        -0.169247       7.0546e-006    
  -0.51           0.977412        -0.183825       0.0108234       0.0709323       0.00751303      0.0692205       0.975849        -0.169602       8.067e-006     
  -0.44           0.977183        -0.185121       0.0109125       0.0712275       0.00648267      0.069723        0.974213        -0.169877       9.4648e-006    
  -0.37           0.976937        -0.186465       0.0109628       0.071539        0.00434133      0.07033         0.971812        -0.17015        1.2172e-005    
  -0.3            0.976553        -0.188175       0.0111061       0.0717089       0.000496549     0.0712552       0.967515        -0.170191       1.6992e-005    
  -0.23           0.976242        -0.19009        0.0111826       0.0717746       -0.0074422      0.0727183       0.96023         -0.169767       2.585e-005     
  -0.16           0.97577         -0.19218        0.0112755       0.0717404       -0.0208964      0.0749611       0.949664        -0.168935       4.2928e-005    
